time	V(-y)	V(x)	V(z)
0.000000000000000e+00	0.000000e+00	5.620323e-20	1.562147e-18
9.999999717180685e-10	-2.097088e-16	-1.683141e-17	1.562147e-18
1.124999968182827e-09	-2.590520e-16	-1.444550e-19	1.562147e-18
1.374999961112344e-09	-2.960595e-16	2.944592e-17	1.562147e-18
1.874999946971379e-09	-1.110223e-16	2.526820e-17	1.562147e-18
2.874999918689447e-09	7.401487e-17	8.496260e-18	1.562147e-18
4.874999862125584e-09	0.000000e+00	-2.020245e-17	1.562147e-18
8.874999748997858e-09	-1.076580e-16	-2.275183e-17	1.562147e-18
8.999999745462617e-09	-2.220446e-17	-5.903694e-17	1.562147e-18
9.031249744578806e-09	1.850372e-16	-8.062671e-17	1.562147e-18
9.093749742811186e-09	5.181041e-16	-9.497859e-17	1.562147e-18
9.218749739275944e-09	2.590520e-16	-5.956669e-17	1.562147e-18
9.468749732205461e-09	-1.480297e-16	-4.045953e-17	1.562147e-18
9.968749718064496e-09	-1.480297e-16	-4.579166e-17	1.562147e-18
1.096874968978256e-08	-1.110223e-16	-4.911933e-18	1.562147e-18
1.296874963321870e-08	-2.960595e-16	1.010090e-17	1.562147e-18
1.696874952009098e-08	-1.480297e-16	-9.243755e-18	1.562147e-18
2.496874929383552e-08	-8.173626e-17	-7.056487e-18	1.562147e-18
3.870153825388523e-08	-1.275033e-16	-1.539029e-17	1.562147e-18
5.722227820745086e-08	4.579671e-17	-1.472707e-18	1.562148e-18
8.360029446498349e-08	5.750962e-17	7.941030e-18	1.562148e-18
1.119485245109711e-07	0.000000e+00	-4.163564e-19	1.562149e-18
1.578175977359424e-07	9.403087e-17	7.308218e-18	1.562151e-18
1.661061619535039e-07	1.480297e-16	1.381429e-17	1.562152e-18
1.826832903886269e-07	1.110223e-16	2.250724e-17	1.562153e-18
2.158375472588728e-07	-4.887084e-16	5.222552e-17	1.562157e-18
2.216665792616949e-07	-5.181041e-16	7.138312e-17	1.562158e-18
2.333246432673390e-07	-4.070818e-16	8.248629e-17	1.562159e-18
2.566407712786274e-07	-3.330669e-16	6.391448e-18	1.562163e-18
2.624698032814494e-07	-2.590520e-16	-3.451262e-18	1.562164e-18
2.741278672870936e-07	-1.110223e-16	1.417480e-19	1.562166e-18
2.974439952983819e-07	-1.480297e-16	5.288191e-18	1.562171e-18
3.440762513209586e-07	-1.850372e-16	1.881957e-17	1.562184e-18
4.373407633661119e-07	-5.837176e-17	4.823474e-17	1.562215e-18
5.407397791675962e-07	0.000000e+00	4.347979e-17	1.562258e-18
5.663362102304385e-07	0.000000e+00	4.055556e-17	1.562270e-18
6.175290723561232e-07	-3.700744e-17	2.946851e-17	1.562299e-18
7.199147966074923e-07	-1.110223e-16	-1.963792e-17	1.562361e-18
7.296329440777786e-07	-2.220446e-17	-2.594812e-17	1.562367e-18
7.320624809453502e-07	3.700744e-17	-3.112041e-17	1.562369e-18
7.369215546804933e-07	1.110223e-16	-1.801793e-18	1.562372e-18
7.381363231142791e-07	7.401487e-17	2.334091e-17	1.562373e-18
7.405658599818506e-07	0.000000e+00	4.180074e-17	1.562375e-18
7.454249337169937e-07	8.881784e-17	-2.689648e-17	1.562378e-18
7.466397021507795e-07	1.110223e-16	-2.122962e-17	1.562379e-18
7.466397762943606e-07	7.401487e-17	-1.092783e-17	1.562379e-18
7.466399245815229e-07	-3.700744e-17	2.077588e-17	1.562379e-18
7.466402211558476e-07	-1.110223e-16	3.782303e-17	1.562379e-18
7.466408143044969e-07	-7.401487e-17	4.617499e-18	1.562379e-18
7.466420006017955e-07	-3.700744e-17	-4.245435e-17	1.562379e-18
7.466443731963927e-07	-1.480297e-16	-2.536483e-17	1.562379e-18
7.466491183855872e-07	-1.480297e-16	1.364901e-17	1.562379e-18
7.466586087639761e-07	0.000000e+00	2.366558e-17	1.562379e-18
7.466586458357668e-07	-1.076580e-16	2.521628e-17	1.562379e-18
7.466586469942602e-07	-3.364309e-18	1.771411e-17	1.562379e-18
7.466586470304631e-07	3.700740e-17	3.257961e-17	1.562379e-18
7.466586471028690e-07	1.110223e-16	4.914602e-17	1.562379e-18
7.466586472476807e-07	3.364309e-18	-2.606956e-18	1.562379e-18
7.466586472522061e-07	0.000000e+00	3.845953e-18	1.562379e-18
7.466586472612568e-07	0.000000e+00	2.866550e-17	1.562379e-18
7.466586472793582e-07	3.700729e-17	5.335871e-17	1.562379e-18
7.466586473155612e-07	1.110223e-16	4.285717e-17	1.562379e-18
7.466586473879670e-07	7.401485e-17	-3.018640e-18	1.562379e-18
7.466586475327788e-07	0.000000e+00	-2.595909e-17	1.562379e-18
7.466586478224021e-07	-8.881786e-17	-2.914664e-17	1.562379e-18
7.466586478948079e-07	-1.480297e-16	-1.585482e-17	1.562379e-18
7.466586480396197e-07	-2.220446e-16	-2.847682e-17	1.562379e-18
7.466586480441450e-07	-1.480309e-16	-4.205807e-17	1.562379e-18
7.466586480531958e-07	7.401543e-17	-3.931376e-17	1.562379e-18
7.466586480712972e-07	2.220446e-16	1.596944e-17	1.562379e-18
7.476586480712972e-07	5.551115e-17	1.330681e-17	1.562370e-18
7.486586480712971e-07	-3.700744e-17	-1.222885e-17	1.562370e-18
7.506586480712972e-07	-1.110223e-16	-4.822456e-17	1.562381e-18
7.511586480712972e-07	-7.401487e-17	-7.421853e-17	1.562382e-18
7.521586480712972e-07	-3.700744e-17	-8.771913e-17	1.562383e-18
7.541586480712972e-07	-1.110223e-16	-3.109258e-17	1.562384e-18
7.581586480712972e-07	-2.886580e-16	1.218354e-17	1.562387e-18
7.591586480712972e-07	-4.070818e-16	1.652622e-17	1.562388e-18
7.611586480712972e-07	-4.070818e-16	2.211693e-17	1.562389e-18
7.651586480712972e-07	1.101583e-16	-1.941116e-17	1.562392e-18
7.651742730712973e-07	7.401487e-17	-3.130657e-17	1.562392e-18
7.652055230712972e-07	1.110223e-16	-4.845803e-17	1.562392e-18
7.652680230712972e-07	4.218847e-16	-2.983463e-17	1.562392e-18
7.652836480712973e-07	3.330669e-16	-3.016063e-17	1.562392e-18
7.653148980712972e-07	-6.661338e-17	-4.256124e-17	1.562392e-18
7.653227105712973e-07	-1.850372e-16	-4.839683e-17	1.562392e-18
7.653383355712973e-07	-1.850372e-16	-4.929843e-17	1.562392e-18
7.653695855712973e-07	2.220446e-16	-2.842101e-17	1.562392e-18
7.654320855712973e-07	1.776357e-16	-6.247176e-18	1.562392e-18
7.654477105712973e-07	7.401487e-17	-3.952351e-18	1.562392e-18
7.654789605712973e-07	7.401487e-17	-4.095125e-19	1.562392e-18
7.655414605712973e-07	3.996803e-16	9.477793e-18	1.562392e-18
7.655570855712974e-07	3.700743e-16	1.351984e-17	1.562392e-18
7.655883355712973e-07	-4.440892e-17	3.082194e-17	1.562392e-18
7.655961480712973e-07	-1.110223e-16	2.697485e-18	1.562392e-18
7.655981011962974e-07	-1.998401e-16	-1.506905e-17	1.562392e-18
7.655985894775473e-07	-2.220446e-16	-8.699903e-18	1.562392e-18
7.655987115478599e-07	-1.143866e-16	-1.473075e-17	1.562392e-18
7.655987153625571e-07	-1.110223e-16	6.548976e-18	1.562392e-18
7.655987163162314e-07	-3.364415e-18	2.004277e-17	1.562392e-18
7.655987163460337e-07	3.700740e-17	2.150709e-17	1.562392e-18
7.655987164056384e-07	2.220412e-17	3.827043e-17	1.562392e-18
7.655987164205395e-07	-3.700729e-17	4.783145e-17	1.562392e-18
7.655987164503418e-07	-7.401490e-17	5.655274e-17	1.562392e-18
7.655987165099465e-07	-8.881797e-17	5.608322e-17	1.562392e-18
7.655987165248476e-07	-1.110223e-16	6.530349e-17	1.562392e-18
7.655987165546499e-07	-3.700729e-17	7.577160e-17	1.562392e-18
7.655987166142546e-07	1.480298e-16	4.669772e-17	1.562392e-18
7.655987167334639e-07	2.220446e-16	-1.125782e-17	1.562392e-18
7.655987169718825e-07	1.850372e-16	-3.007930e-17	1.562392e-18
7.655987174487197e-07	2.220447e-17	1.713296e-17	1.562392e-18
7.655987175679290e-07	0.000000e+00	-5.058097e-18	1.562392e-18
7.655987178063476e-07	0.000000e+00	-2.600108e-17	1.562392e-18
7.655987182831847e-07	3.700744e-17	2.439574e-17	1.562392e-18
7.655987192368590e-07	1.110223e-16	8.060102e-18	1.562392e-18
7.655987211442077e-07	7.401486e-17	-1.076981e-19	1.562392e-18
7.655987249589050e-07	0.000000e+00	2.627757e-17	1.562392e-18
7.655987325882995e-07	8.881784e-17	2.657203e-17	1.562392e-18
7.655987344956482e-07	1.850372e-16	3.251345e-17	1.562392e-18
7.655987383103455e-07	2.960595e-16	3.970288e-17	1.562392e-18
7.655987459397400e-07	1.480297e-16	2.210535e-17	1.562392e-18
7.655987611985290e-07	3.700744e-17	-1.339769e-17	1.562392e-18
7.655987917161072e-07	1.110223e-16	-2.099286e-17	1.562392e-18
7.655988527512634e-07	3.700744e-17	5.678636e-18	1.562392e-18
7.655989748215759e-07	-1.110223e-16	3.858788e-17	1.562392e-18
7.655990053391540e-07	-1.110223e-16	3.232256e-17	1.562392e-18
7.655990663743102e-07	-1.480297e-16	2.730526e-17	1.562392e-18
7.655991884446228e-07	4.440892e-17	5.431285e-17	1.562392e-18
7.655992189622009e-07	1.110223e-16	4.979475e-17	1.562392e-18
7.655992799973571e-07	-6.661338e-17	8.887903e-18	1.562392e-18
7.655992952561462e-07	-7.401487e-17	-1.036238e-17	1.562392e-18
7.655993257737243e-07	3.700744e-17	-1.964817e-17	1.562392e-18
7.655993868088805e-07	1.110223e-16	1.026118e-17	1.562392e-18
7.655995088791930e-07	1.480297e-16	9.929407e-19	1.562392e-18
7.655997530198180e-07	2.220446e-16	-1.035006e-17	1.562392e-18
7.655997539734923e-07	1.480297e-16	-9.879951e-18	1.562392e-18
7.655997558808410e-07	0.000000e+00	-4.790738e-17	1.562392e-18
7.655997563576782e-07	-3.700744e-17	-5.714626e-17	1.562392e-18
7.655997573113525e-07	-1.110223e-16	-3.721975e-17	1.562392e-18
7.655997592187012e-07	-1.110223e-16	-4.207174e-17	1.562392e-18
7.655997596955384e-07	-1.110223e-16	-7.084110e-17	1.562392e-18
7.655997606492126e-07	-7.401486e-17	-8.617482e-17	1.562392e-18
7.655997625565613e-07	0.000000e+00	-3.853458e-17	1.562392e-18
7.655997630333985e-07	3.700744e-17	-5.336907e-17	1.562392e-18
7.655997639870728e-07	1.110223e-16	-6.695554e-17	1.562392e-18
7.655997658944215e-07	2.220446e-17	-2.280963e-17	1.562392e-18
7.655997663712587e-07	0.000000e+00	-3.589689e-17	1.562392e-18
7.655997673249330e-07	0.000000e+00	-4.773614e-17	1.562392e-18
7.655997692322817e-07	0.000000e+00	-7.084660e-18	1.562392e-18
7.655997697091189e-07	3.700744e-17	-1.842471e-17	1.562392e-18
7.655997706627932e-07	1.110223e-16	-2.851674e-17	1.562392e-18
7.655997725701418e-07	1.110223e-16	8.640302e-18	1.562392e-18
7.655997730469790e-07	1.110223e-16	-9.525183e-19	1.562392e-18
7.655997740006533e-07	7.401486e-17	-9.297318e-18	1.562392e-18
7.655997759080020e-07	0.000000e+00	1.731859e-17	1.562392e-18
7.655997797226993e-07	0.000000e+00	1.964586e-17	1.562392e-18
7.655997798419086e-07	0.000000e+00	3.620305e-17	1.562392e-18
7.655997800803272e-07	0.000000e+00	6.503856e-17	1.562392e-18
7.655997805571644e-07	-3.700744e-17	4.953596e-17	1.562392e-18
7.655997815108387e-07	-1.480297e-16	2.063020e-17	1.562392e-18
7.655997834181873e-07	-1.480297e-16	-1.413535e-17	1.562392e-18
7.655997872328846e-07	3.700743e-17	-2.136170e-17	1.562392e-18
7.655997948622791e-07	3.700743e-17	-4.662129e-18	1.562392e-18
7.655998101210682e-07	-1.110223e-16	1.384401e-17	1.562392e-18
7.655998406386463e-07	-3.700744e-17	3.325343e-17	1.562392e-18
7.655999016738025e-07	7.401487e-17	1.248907e-17	1.562392e-18
7.656000237441151e-07	3.700744e-17	-8.049478e-18	1.562392e-18
7.656002678847400e-07	1.998401e-16	5.975744e-18	1.562392e-18
7.656003289198963e-07	1.480297e-16	9.628671e-18	1.562392e-18
7.656004509902088e-07	-3.700744e-17	1.452961e-17	1.562392e-18
7.656006951308338e-07	-1.110223e-16	4.941749e-18	1.562392e-18
7.656011834120837e-07	-1.110223e-16	-1.182314e-17	1.562392e-18
7.656021599745837e-07	-1.110223e-16	-1.004922e-17	1.562392e-18
7.656041130995838e-07	-7.401487e-17	-3.963134e-17	1.562392e-18
7.656080193495837e-07	0.000000e+00	-3.410968e-17	1.562392e-18
7.656158318495837e-07	2.211806e-16	3.466511e-17	1.562392e-18
7.656158623671619e-07	1.850372e-16	1.145010e-17	1.562392e-18
7.656159234023181e-07	3.700744e-17	-4.048056e-17	1.562392e-18
7.656160454726306e-07	6.661338e-17	-4.546694e-17	1.562392e-18
7.656160759902087e-07	2.220446e-17	7.045474e-18	1.562392e-18
7.656160836196033e-07	-7.401487e-17	3.307089e-17	1.562392e-18
7.656160988783923e-07	-1.850372e-16	4.624203e-17	1.562392e-18
7.656161293959704e-07	-7.401487e-17	8.097736e-18	1.562392e-18
7.656161904311266e-07	0.000000e+00	-2.040151e-17	1.562392e-18
7.656163125014392e-07	0.000000e+00	-6.280704e-17	1.562392e-18
7.656163163161364e-07	0.000000e+00	-6.476497e-17	1.562392e-18
7.656163239455310e-07	0.000000e+00	-4.927275e-17	1.562392e-18
7.656163392043200e-07	3.700744e-17	2.189663e-19	1.562392e-18
7.656163697218981e-07	1.110223e-16	2.644091e-17	1.562392e-18
7.656164307570543e-07	7.401487e-17	9.082801e-18	1.562392e-18
7.656165528273669e-07	8.881784e-17	-8.120154e-18	1.562392e-18
7.656165833449450e-07	1.998401e-16	1.660521e-17	1.562392e-18
7.656165909743395e-07	1.480297e-16	1.995628e-17	1.562392e-18
7.656166062331286e-07	-3.700744e-17	5.386401e-18	1.562392e-18
7.656166367507067e-07	-2.220446e-17	-7.939433e-18	1.562392e-18
7.656166443801012e-07	0.000000e+00	7.709174e-18	1.562392e-18
7.656166596388903e-07	3.700744e-17	2.460579e-17	1.562392e-18
7.656166901564684e-07	1.480297e-16	3.502116e-18	1.562392e-18
7.656167511916246e-07	1.480297e-16	7.769766e-18	1.562392e-18
7.656168732619371e-07	-7.401487e-17	-1.040913e-17	1.562392e-18
7.656171174025621e-07	-1.114543e-16	-1.213527e-17	1.562392e-18
7.656171183562364e-07	-7.401486e-17	8.371855e-18	1.562392e-18
7.656171202635851e-07	-8.881784e-17	2.474362e-17	1.562392e-18
7.656171207404223e-07	-1.110223e-16	8.513462e-18	1.562392e-18
7.656171216940966e-07	-7.401488e-17	-1.919748e-17	1.562392e-18
7.656171236014453e-07	1.076580e-16	-1.610726e-17	1.562392e-18
7.656171236610499e-07	1.480298e-16	3.910248e-20	1.562392e-18
7.656171237802592e-07	1.332268e-16	-2.856619e-19	1.562392e-18
7.656171238100615e-07	3.700750e-17	-2.128319e-17	1.562392e-18
7.656171238696662e-07	-1.110223e-16	-6.177221e-17	1.562392e-18
7.656171238845673e-07	-7.401480e-17	-7.126713e-17	1.562392e-18
7.656171239143696e-07	-3.700729e-17	-7.445600e-17	1.562392e-18
7.656171239739743e-07	-1.998401e-16	-5.110573e-17	1.562392e-18
7.656171239888754e-07	-1.850373e-16	-5.379506e-17	1.562392e-18
7.656171240186777e-07	-3.700750e-17	-5.523618e-17	1.562392e-18
7.656171240782824e-07	3.361027e-18	-1.722124e-17	1.562392e-18
7.656171240801450e-07	-7.401374e-17	-1.310275e-17	1.562392e-18
7.656171240838702e-07	-1.850377e-16	6.061580e-18	1.562392e-18
7.656171240913208e-07	-7.401459e-17	1.762654e-17	1.562392e-18
7.656171241062219e-07	0.000000e+00	-2.996803e-18	1.562392e-18
7.656171241099472e-07	0.000000e+00	6.431098e-18	1.562392e-18
7.656171241173978e-07	0.000000e+00	-3.206020e-18	1.562392e-18
7.656171241322989e-07	-3.700729e-17	-5.331681e-17	1.562392e-18
7.656171241621012e-07	-1.110223e-16	-4.095161e-17	1.562392e-18
7.656171242217059e-07	-1.832132e-18	2.964954e-17	1.562392e-18
7.656171242227059e-07	0.000000e+00	5.104898e-17	1.562392e-18
7.656171242237059e-07	0.000000e+00	7.313028e-17	1.562392e-18
7.656171242257059e-07	-3.700687e-17	6.137601e-17	1.562392e-18
7.656171242297059e-07	-1.110223e-16	1.838866e-17	1.562392e-18
7.656171242377059e-07	-3.700772e-17	-1.528069e-17	1.562392e-18
7.656171242537059e-07	1.110223e-16	-2.193709e-17	1.562392e-18
7.656171242857059e-07	1.110223e-16	2.741083e-17	1.562392e-18
7.656171242867059e-07	1.110223e-16	2.400534e-17	1.562392e-18
7.656171242877060e-07	7.401374e-17	2.097974e-17	1.562392e-18
7.656171242897059e-07	0.000000e+00	1.356904e-17	1.562392e-18
7.656171242937059e-07	0.000000e+00	-1.246832e-18	1.562392e-18
7.656171242947059e-07	0.000000e+00	1.515342e-17	1.562392e-18
7.656171242967059e-07	-1.776338e-24	4.495231e-17	1.562392e-18
7.657421242967058e-07	-5.551115e-17	6.326434e-17	1.562383e-18
7.658671242967058e-07	0.000000e+00	7.036838e-17	1.562382e-18
7.661171242967058e-07	-2.219362e-16	4.516137e-17	1.562393e-18
7.661172463670184e-07	-1.850372e-16	3.574226e-17	1.562393e-18
7.661174905076433e-07	-7.401487e-17	7.116179e-18	1.562393e-18
7.661179787888933e-07	-7.401487e-17	-8.422614e-18	1.562393e-18
7.661189553513933e-07	-2.590520e-16	1.196376e-17	1.562393e-18
7.661209084763933e-07	-2.590520e-16	3.231331e-17	1.562393e-18
7.661248147263933e-07	-7.401487e-17	2.217536e-17	1.562393e-18
7.661326272263933e-07	0.000000e+00	1.710639e-17	1.562393e-18
7.661482522263934e-07	3.700744e-17	-5.740816e-18	1.562393e-18
7.661795022263933e-07	1.998401e-16	-4.138959e-17	1.562393e-18
7.661873147263933e-07	1.480297e-16	-1.591585e-17	1.562393e-18
7.662029397263934e-07	-1.110155e-16	1.161420e-17	1.562393e-18
7.662029406800677e-07	-7.401487e-17	4.805139e-18	1.562393e-18
7.662029425874163e-07	0.000000e+00	-1.648071e-17	1.562393e-18
7.662029464021136e-07	0.000000e+00	-1.435502e-17	1.562393e-18
7.662029540315081e-07	0.000000e+00	2.931029e-17	1.562393e-18
7.662029692902972e-07	0.000000e+00	3.083022e-17	1.562393e-18
7.662029998078753e-07	7.401487e-17	1.127746e-17	1.562393e-18
7.662030608430315e-07	2.220446e-16	4.194717e-17	1.562393e-18
7.662030761018206e-07	4.440892e-17	-2.370231e-18	1.562393e-18
7.662030799165178e-07	-3.700744e-17	-2.352707e-17	1.562393e-18
7.662030875459124e-07	-1.110223e-16	-2.744720e-17	1.562393e-18
7.662031028047014e-07	3.700744e-17	1.510003e-17	1.562393e-18
7.662031333222795e-07	4.070818e-16	2.372508e-17	1.562393e-18
7.662031943574357e-07	4.440892e-16	-1.258783e-17	1.562393e-18
7.662033164277483e-07	1.850372e-16	-3.074429e-17	1.562393e-18
7.662035605683733e-07	7.401487e-17	-2.966616e-17	1.562393e-18
7.662040488496232e-07	-7.401487e-17	-8.814370e-18	1.562393e-18
7.662050254121232e-07	-2.220446e-16	5.516811e-18	1.562393e-18
7.662052695527482e-07	-2.220446e-16	2.266056e-17	1.562393e-18
7.662057578339982e-07	-2.220446e-16	4.105232e-17	1.562393e-18
7.662067343964982e-07	-2.220446e-16	2.124178e-17	1.562393e-18
7.662069785371232e-07	-2.220446e-16	4.013275e-17	1.562393e-18
7.662074668183731e-07	-2.220446e-16	6.027173e-17	1.562393e-18
7.662084433808731e-07	-2.590520e-16	2.781981e-17	1.562393e-18
7.662103965058732e-07	-2.960595e-16	9.772252e-18	1.562393e-18
7.662143027558731e-07	-1.332268e-16	-7.706483e-18	1.562393e-18
7.662152793183731e-07	-2.186803e-16	6.090718e-17	1.562393e-18
7.662153098359512e-07	-2.220446e-16	6.035383e-17	1.562393e-18
7.662154929414200e-07	-7.401487e-17	5.246528e-18	1.562393e-18
7.662157370820450e-07	-7.401487e-17	-2.182711e-17	1.562393e-18
7.662162253632949e-07	-2.220446e-16	-2.520756e-17	1.562393e-18
7.662172019257949e-07	-1.114543e-16	5.689356e-17	1.562393e-18
7.662172057404922e-07	-7.401487e-17	6.461822e-17	1.562393e-18
7.662172133698867e-07	8.881785e-17	1.862824e-17	1.562393e-18
7.662172152772354e-07	-6.661337e-17	-3.414952e-18	1.562393e-18
7.662172157540726e-07	-7.401486e-17	1.941973e-17	1.562393e-18
7.662172167077469e-07	3.700743e-17	5.438394e-17	1.562393e-18
7.662172186150956e-07	1.110223e-16	3.214945e-17	1.562393e-18
7.662172190919328e-07	7.401486e-17	5.225239e-17	1.562393e-18
7.662172200456071e-07	-3.700743e-17	7.360332e-17	1.562393e-18
7.662172219529558e-07	-1.110223e-16	1.659681e-17	1.562393e-18
7.662172257676530e-07	-1.110223e-16	-1.615196e-17	1.562393e-18
7.662172333970476e-07	-1.110223e-16	2.841183e-17	1.562393e-18
7.662172486558366e-07	-1.110223e-16	3.038099e-17	1.562393e-18
7.662172791734147e-07	-7.401487e-17	8.964804e-19	1.562393e-18
7.662173402085709e-07	0.000000e+00	-3.689412e-18	1.562393e-18
7.662174622788835e-07	3.700744e-17	-1.613872e-17	1.562393e-18
7.662177064195085e-07	7.401487e-17	-2.050650e-18	1.562393e-18
7.662181947007584e-07	-7.401487e-17	-1.531934e-17	1.562393e-18
7.662191712632584e-07	-2.590520e-16	-3.211004e-17	1.562393e-18
7.662211243882585e-07	-3.330669e-16	1.591467e-17	1.562393e-18
7.662216126695084e-07	-1.111307e-16	-8.433384e-18	1.562393e-18
7.662216129079270e-07	-1.110223e-16	8.755369e-18	1.562393e-18
7.662216133847642e-07	-7.401487e-17	2.100079e-17	1.562393e-18
7.662216143384385e-07	0.000000e+00	-2.757832e-17	1.562393e-18
7.662216162457872e-07	-3.700743e-17	-1.792681e-17	1.562393e-18
7.662216200604844e-07	-3.700744e-17	1.736804e-17	1.562393e-18
7.662216276898790e-07	7.401487e-17	1.470274e-17	1.562393e-18
7.662216429486680e-07	0.000000e+00	1.337007e-17	1.562393e-18
7.662216734662461e-07	0.000000e+00	2.547385e-18	1.562393e-18
7.662217345014023e-07	-7.401487e-17	-3.333304e-17	1.562393e-18
7.662218565717149e-07	-1.850372e-16	-5.127325e-17	1.562393e-18
7.662221007123399e-07	-1.110223e-16	-1.995852e-17	1.562393e-18
7.662221617474961e-07	-1.110223e-16	-3.272899e-17	1.562393e-18
7.662222838178086e-07	-3.700744e-17	-4.425145e-17	1.562393e-18
7.662225279584336e-07	7.401487e-17	3.642585e-18	1.562393e-18
7.662230162396836e-07	-7.401487e-17	1.799636e-17	1.562393e-18
7.662239928021836e-07	-2.590520e-16	-1.545219e-17	1.562393e-18
7.662259459271836e-07	-2.960595e-16	-3.217647e-17	1.562393e-18
7.662298521771836e-07	-1.332268e-16	-3.287571e-17	1.562393e-18
7.662308287396836e-07	-3.364312e-18	-4.066719e-18	1.562393e-18
